(1620291977.774162) can0 1FE00A08#0140320096CE
(1620291977.776965) can0 1FD047FF#0142320096CE3A
(1620291978.773055) can0 1FE00FFF#016155FF
(1620291979.435834) can0 00D047FF#0102
(1620291979.451484) can0 1FD047FF#01086093BF25
(1620291980.774937) can0 1FE00A08#0140320001F7
(1620291980.777845) can0 1FD047FF#0142320001F704
(1620291980.780714) can0 1F600FFF#11DF7402FF000000
(1620291980.783192) can0 1EA00FFF#DF00FFFF7A8A
(1620291981.076275) can0 00E00FFF#0102
(1620291981.255721) can0 1FD047FF#015002080401
(1620291981.270419) can0 1FD047FF#014C110100
(1620291981.286093) can0 1F5047FF#11227400FF000000
(1620291981.288562) can0 1E9047FF#2200FFFF71E5
(1620291982.035895) can0 1FD047FF#01086093BF28
(1620291983.775698) can0 1FE00A08#0140320001F9
(1620291983.778734) can0 1F5047FF#192442320001F94B
(1620291983.781421) can0 1E1047FF#246F6E7374616E74
(1620291983.783358) can0 1D9047FF#24566E
(1620291983.833698) can0 1FE00A08#014632009ECB5E
(1620291983.837010) can0 1FD047FF#014232009ECB5E
(1620291984.256053) can0 1FD047FF#01613EFF
(1620291984.438782) can0 00D047FF#0102
(1620291985.109085) can0 00D047FF#010A0202080401
(1620291985.438150) can0 1FD047FF#0142320096CE5E
(1620291985.774776) can0 1FE00FFF#016157FF
(1620291985.778047) can0 1FE00FFF#0152060100
(1620291985.782144) can0 1F600FFF#11E47403FF000000
(1620291985.784646) can0 1EA00FFF#E400FFFFFB35
(1620291986.077500) can0 00E00FFF#0102
(1620291986.259048) can0 1F5047FF#112A7401FF000000
(1620291986.261559) can0 1E9047FF#2A00FFFFF05A
(1620291986.303634) can0 1FD047FF#0142320092E200CF
(1620291986.776630) can0 1FE00A08#014032009F0A
(1620291986.779507) can0 1FD047FF#014232009F0A64
(1620291988.304810) can0 1FD047FF#0142320092E200D0
(1620291989.441793) can0 00D047FF#0102
(1620291989.777090) can0 1FE00A08#014032009EEE
(1620291989.779937) can0 1FD047FF#014232009EEE0F
(1620291990.306003) can0 1FD047FF#0142320092E200CF
(1620291990.781815) can0 1F600FFF#11E87404FF000000
(1620291990.784285) can0 1EA00FFF#E800FFFF673B
(1620291991.078800) can0 00E00FFF#0102
(1620291991.260373) can0 1FD047FF#01615AFF
(1620291991.276162) can0 1FD047FF#015002080401
(1620291991.290435) can0 1FD047FF#014C040180
(1620291991.306000) can0 1F5047FF#11347402FF000000
(1620291991.308460) can0 1E9047FF#3400FFFF7A8A
(1620291992.776506) can0 1FE00FFF#016158FF
(1620291992.791843) can0 1FE00A08#014032009AE4
(1620291992.794691) can0 1FD047FF#014232009AE401
(1620291992.811523) can0 1FE00A08#014632009ECB3C
(1620291992.814525) can0 1FD047FF#014232009ECB3C
(1620291993.442947) can0 1FD047FF#0142320096CE3C
(1620291994.444762) can0 00D047FF#0102
(1620291994.460410) can0 1FD047FF#01086093BF34
(1620291995.115032) can0 00D047FF#010A0202080401
(1620291995.778628) can0 1FE00A08#0140320092E8
(1620291995.781491) can0 1FD047FF#0142320092E8FF
(1620291995.783809) can0 1FE00FFF#0152000100
(1620291995.786780) can0 1F5047FF#113C56320092E870
(1620291995.789070) can0 1E9047FF#3C006400A4
(1620291995.792405) can0 1F600FFF#11EE740002D46268
(1620291995.794893) can0 1EA00FFF#EE600000A366
(1620291996.079972) can0 00E00FFF#0102
(1620291996.265027) can0 1F5047FF#113D7403FF000000
(1620291996.267502) can0 1E9047FF#3D00FFFFFB35
(1620291996.309549) can0 1FD047FF#0142320092E200D0
(1620291998.264402) can0 1FD047FF#016100FF
(1620291998.779330) can0 1FE00A08#0140320092EB
(1620291998.782197) can0 1FD047FF#0142320092EBFF
(1620291998.797479) can0 1F5047FF#114156320092EB70
(1620291998.799804) can0 1E9047FF#4100642569
(1620291999.447735) can0 00D047FF#0102
(1620291999.780183) can0 1FE00FFF#016159FF
(1620292000.311996) can0 1FD047FF#0142320092E200CF
(1620292000.784346) can0 1F600FFF#11F27401FF000000
(1620292000.786826) can0 1EA00FFF#F200FFFFF05A
(1620292001.081258) can0 00E00FFF#0102
(1620292001.267628) can0 1FD047FF#015002080401
(1620292001.282393) can0 1FD047FF#014C050180
(1620292001.297942) can0 1F5047FF#11467404FF000000
(1620292001.300407) can0 1E9047FF#4600FFFF673B
(1620292001.780077) can0 1FE00A08#014032009EEF
(1620292001.782932) can0 1FD047FF#014232009EEF38
(1620292002.441578) can0 1FE00A08#014032009ECA00
(1620292002.444449) can0 1FD047FF#014232009ECA04
(1620292002.447084) can0 1FE10A08#014032009ECB00
(1620292002.449901) can0 1FD047FF#014232009ECB3C
(1620292002.452526) can0 1FE20A08#014032009EEE00
(1620292002.455382) can0 1FD047FF#014232009EEE0F
(1620292002.458076) can0 1FE30A08#01403200000000
(1620292002.461201) can0 1FD047FF#0142320000000062
(1620292002.463817) can0 1FE40A08#0140320096CE00
(1620292002.466656) can0 1FD047FF#0142320096CE3C
(1620292002.469249) can0 1FE50A08#0140320092E200
(1620292002.472318) can0 1FD047FF#0142320092E200CF
(1620292002.474910) can0 1FE60A08#014032009EEF00
(1620292002.477736) can0 1FD047FF#014232009EEF38
(1620292002.480397) can0 1FE70A08#0140320092E000
(1620292002.483262) can0 1FD047FF#0142320092E026