(1620301039.111383) can0 1FE00FFF#016153FF
(1620301039.788994) can0 1FD047FF#0142320092E200CF
(1620301039.966385) can0 00D047FF#0102
(1620301040.112983) can0 1FE00A08#0140320096CE
(1620301040.115818) can0 1FD047FF#0142320096CE3C
(1620301040.600689) can0 00D047FF#010A0202080401
(1620301040.743246) can0 1FD047FF#016132FF
(1620301041.746279) can0 1F5047FF#114D7401FF000000
(1620301041.748757) can0 1E9047FF#4D00FFFFF05A
(1620301042.125292) can0 1FD047FF#01086093E28C
(1620301043.113870) can0 1FE00A08#0140320001F7
(1620301043.116769) can0 1FD047FF#0142320001F704
(1620301043.119599) can0 1F600FFF#116B7404FF000000
(1620301043.122062) can0 1EA00FFF#6B00FFFF673B
(1620301043.635290) can0 00E00FFF#0102
(1620301044.969563) can0 00D047FF#0102
(1620301045.792781) can0 1FD047FF#0142320092E200CE
(1620301046.113534) can0 1FE00FFF#016154FFFF
(1620301046.128723) can0 1FE00A08#0140320001F9
(1620301046.131752) can0 1F5047FF#195242320001F94B
(1620301046.134480) can0 1E1047FF#526F6E7374616E74
(1620301046.136356) can0 1D9047FF#52566E
(1620301046.748498) can0 1FD047FF#015002080401
(1620301046.763824) can0 1F5047FF#11547402FF000000
(1620301046.766348) can0 1E9047FF#5400FFFF7A8A
(1620301047.747667) can0 1FD047FF#01613DFF
(1620301048.118247) can0 1FE00FFF#0152060100
(1620301048.133631) can0 1F600FFF#1170740002D46268
(1620301048.136143) can0 1EA00FFF#70600000A366
(1620301048.636729) can0 00E00FFF#0102
(1620301049.115810) can0 1FE00A08#014032009F0A
(1620301049.118689) can0 1FD047FF#014232009F0A64
(1620301049.972730) can0 00D047FF#0102
(1620301050.607042) can0 00D047FF#010A0202080401
(1620301051.752033) can0 1F5047FF#11597403FF000000
(1620301051.754518) can0 1E9047FF#5900FFFFFB35
(1620301051.796572) can0 1FD047FF#0142320092E200CD
(1620301052.116380) can0 1FE00A08#014032009EEE
(1620301052.119227) can0 1FD047FF#014232009EEE0F
(1620301053.115367) can0 1FE00FFF#016155FF
(1620301053.121141) can0 1F600FFF#11757401FF000000
(1620301053.123646) can0 1EA00FFF#7500FFFFF05A
(1620301053.638165) can0 00E00FFF#0102
(1620301053.797827) can0 1FD047FF#0142320092E200CE
(1620301054.752159) can0 1FD047FF#01613EFF
(1620301054.975918) can0 00D047FF#0102
(1620301055.117273) can0 1FE00A08#014032009AE4
(1620301055.120083) can0 1FD047FF#014232009AE401
(1620301055.799131) can0 1FD047FF#0142320092E200CF
(1620301056.755580) can0 1FD047FF#015002080401
(1620301056.770184) can0 1F5047FF#A1624C0080000000
(1620301056.773132) can0 1E1047FF#6200000000000000
(1620301056.776048) can0 1D1047FF#6200000000000000
(1620301056.778967) can0 1C1047FF#6200000000000000
(1620301056.781891) can0 1B1047FF#6200000000000000
(1620301056.784785) can0 1A1047FF#6200000000000000
(1620301056.787684) can0 191047FF#6200000000000000
(1620301056.790630) can0 181047FF#6200000000000000
(1620301056.793503) can0 171047FF#6200000000000000
(1620301056.796447) can0 161047FF#6200000000000000
(1620301056.799342) can0 151047FF#6200000000000000
(1620301056.802279) can0 141047FF#6200000000000000
(1620301056.805168) can0 131047FF#6200000000000000
(1620301056.808095) can0 121047FF#6200000000000000
(1620301056.811006) can0 111047FF#6200000000000000
(1620301056.813906) can0 101047FF#6200000000000000
(1620301056.816844) can0 0F1047FF#6200000000000000
(1620301056.819765) can0 0E1047FF#6200000000000000
(1620301056.822614) can0 0D1047FF#620000000000006A
(1620301056.824324) can0 0C9047FF#62A2
(1620301056.830173) can0 1F5047FF#11637404FF000000
(1620301056.832642) can0 1E9047FF#6300FFFF673B
(1620301057.800394) can0 1FD047FF#0142320092E200CD
(1620301058.118080) can0 1FE00A08#0140320092E8
(1620301058.120963) can0 1FD047FF#0142320092E8FF
(1620301058.123296) can0 1FE00FFF#0152000100
(1620301058.126264) can0 1F5047FF#116656320092E870
(1620301058.128552) can0 1E9047FF#66006400A4
(1620301058.131945) can0 1F600FFF#117A7402FF000000
(1620301058.134422) can0 1EA00FFF#7A00FFFF7A8A
(1620301058.639610) can0 00E00FFF#0102
(1620301059.801678) can0 1FD047FF#0142320092E200CF
(1620301059.979070) can0 00D047FF#0102
(1620301059.994741) can0 1FD047FF#01086093E29D
(1620301060.117329) can0 1FE00FFF#016157FF
(1620301060.613359) can0 00D047FF#010A0202080401
(1620301061.120879) can0 1FE00A08#0140320092EB
(1620301061.123763) can0 1FD047FF#0142320092EBFF
(1620301061.138873) can0 1F5047FF#116C56320092EB70
(1620301061.141163) can0 1E9047FF#6C00642569
(1620301061.756535) can0 1FD047FF#01615AFF
(1620301061.772385) can0 1F5047FF#116E7400FF000000
(1620301061.774837) can0 1E9047FF#6E00FFFF71E5
(1620301061.802915) can0 1FD047FF#0142320092E200CE
(1620301062.459621) can0 1FE00A08#014032009ECA00
(1620301062.462506) can0 1FD047FF#014232009ECA04
(1620301062.465165) can0 1FE10A08#014032009ECB00
(1620301062.467957) can0 1FD047FF#014232009ECB3C
(1620301062.470576) can0 1FE20A08#014032009EEE00
(1620301062.473450) can0 1FD047FF#014232009EEE0F
(1620301062.476114) can0 1FE30A08#01403200000000
(1620301062.479234) can0 1FD047FF#0142320000000066
(1620301062.481858) can0 1FE40A08#0140320096CE00
(1620301062.484694) can0 1FD047FF#0142320096CE3C
(1620301062.487296) can0 1FE50A08#0140320092E200
(1620301062.490308) can0 1FD047FF#0142320092E200CE
(1620301062.492945) can0 1FE60A08#014032009EEF00
(1620301062.495742) can0 1FD047FF#014232009EEF38
(1620301062.498415) can0 1FE70A08#0140320092E000
(1620301062.501271) can0 1FD047FF#0142320092E026
(1620301063.125854) can0 1F600FFF#117E7403FF000000
(1620301063.128381) can0 1EA00FFF#7E00FFFFFB35
(1620301063.640970) can0 00E00FFF#0102
(1620301064.046890) can0 1FE00A08#0144320092E8
(1620301064.063991) can0 1FE00A08#0144320092EB
(1620301064.080952) can0 1FE00A08#014432009F0A
(1620301064.095854) can0 1FE00A08#014000000FA5
(1620301064.099032) can0 1F5047FF#19784200000FA548
(1620301064.101705) can0 1E1047FF#786F6D6556656E74
(1620301064.103595) can0 1D9047FF#786EAF
(1620301064.108884) can0 1FE00A08#014432009EEE
(1620301064.112914) can0 1FE00A08#014432009AE4
(1620301064.124712) can0 1FE00A08#014032009EEF
(1620301064.127574) can0 1FD047FF#014232009EEF38
(1620301064.130091) can0 1FE00A08#0144320001F7
(1620301064.147017) can0 1FE00A08#0144320096CE
(1620301064.163278) can0 1FE00A08#014432009EEF
(1620301064.171787) can0 1FE00A08#014000000FFA
(1620301064.174959) can0 1F5047FF#117A4200000FFA54
(1620301064.177651) can0 1E9047FF#7A54452D4856D03D
(1620301064.180123) can0 1FE00A08#0144320001F9
(1620301064.982232) can0 00D047FF#0102
(1620301065.120057) can0 1F600A08#198C46320001F94B
(1620301065.122745) can0 1E200A08#8C6F6E7374616E74
(1620301065.124657) can0 1DA00A08#8C40DA
(1620301065.177130) can0 1FE00A08#014000000813
(1620301065.180204) can0 1FD047FF#01420000081300
(1620301065.182736) can0 1FE00A08#014000000FF9
(1620301065.185926) can0 1FD047FF#014200000FF9A581
(1620301065.190178) can0 1FE00A08#014000000FFD
(1620301065.193467) can0 1FD047FF#014200000FFD0064
(1620301065.196024) can0 1FE00A08#014000000FFE
(1620301065.199312) can0 1FD047FF#014200000FFE0002
(1620301065.202470) can0 1FE00A08#01400000101E
(1620301065.205786) can0 1F5047FF#A180420000101E00
(1620301065.208693) can0 1E1047FF#8000000000000000
(1620301065.211631) can0 1D1047FF#8000000000000000
(1620301065.214131) can0 1FE00A08#014000004EE8
(1620301065.217041) can0 1C1047FF#8000000000000000
(1620301065.219982) can0 1B1047FF#8000000000000000
(1620301065.222985) can0 1A1047FF#8000000000000000
(1620301065.225757) can0 191047FF#8000000000000000
(1620301065.228237) can0 1FE00A08#014000004EE9
(1620301065.231177) can0 181047FF#8000000000000000
(1620301065.234100) can0 171047FF#8000000000000000
(1620301065.237030) can0 161047FF#8000000000000000
(1620301065.239986) can0 151047FF#8000000000000000
(1620301065.242468) can0 1FE00A08#014000004EEA
(1620301065.245379) can0 141047FF#8000000000000000
(1620301065.248316) can0 131047FF#8000000000000000
(1620301065.251241) can0 121047FF#8000000000000000
(1620301065.254172) can0 111047FF#8000000000000000
(1620301065.256650) can0 1FE00A08#014000004EEB
(1620301065.259633) can0 101047FF#8000000000000000
(1620301065.262536) can0 0F1047FF#8000000000000000
(1620301065.265473) can0 0E1047FF#8000000000000000
(1620301065.268408) can0 0D1047FF#8000000000000000
(1620301065.270501) can0 0C9047FF#8000AD73
(1620301065.273002) can0 1FE00A08#014000004EEC
(1620301065.276087) can0 1F5047FF#11814200004EE800
(1620301065.278591) can0 1E9047FF#81000000E9FF
(1620301065.284384) can0 1FE00A08#01400000526D
(1620301065.287216) can0 1F5047FF#11824200004EE900
(1620301065.289675) can0 1E9047FF#82000000E2BB
(1620301065.293566) can0 1FE00A08#01400000526E
(1620301065.296719) can0 1F5047FF#1183560000526DF0
(1620301065.299373) can0 1E9047FF#8300000000E78F
(1620301065.301850) can0 1FE00A08#014000004E24
(1620301065.304916) can0 1F5047FF#11844200004EEA00
(1620301065.307390) can0 1FE00A08#014000005242
(1620301065.309907) can0 1E9047FF#84000000FF77
(1620301065.314135) can0 1FE00A08#014000000000
(1620301065.316920) can0 1F5047FF#1185560000526EF3
(1620301065.319513) can0 1E9047FF#85FF9C00643A14
(1620301065.330552) can0 1F5047FF#11864200004EEB00
(1620301065.333042) can0 1E9047FF#86000000F433
(1620301065.345545) can0 1F5047FF#19875600005242F0
(1620301065.348445) can0 1E1047FF#8700000000000000
(1620301065.350570) can0 1D9047FF#87001B5A
(1620301065.360575) can0 1F5047FF#11884200004EEC00
(1620301065.363031) can0 1E9047FF#8800000482CB
(1620301065.375611) can0 1FD047FF#01420000526D8000
(1620301065.390654) can0 1FD047FF#01420000526E8000
(1620301065.405589) can0 1F5047FF#118B4200004E2402
(1620301065.408029) can0 1E9047FF#8B0700035250
(1620301065.420627) can0 1F5047FF#118C420000524200
(1620301065.423964) can0 1E9047FF#8C00002FE522
(1620301065.435741) can0 1FD047FF#0142000000008000
(1620301066.761171) can0 1FD047FF#015002080401
(1620301066.776518) can0 1F5047FF#118F7401FF000000
(1620301066.779006) can0 1E9047FF#8F00FFFFF05A
(1620301067.119334) can0 1FE00FFF#016158FF
(1620301067.134731) can0 1FE00A08#01400000101E
(1620301067.137914) can0 1F5047FF#A190420000101E00
(1620301067.140851) can0 1E1047FF#9000000000000000
(1620301067.143757) can0 1D1047FF#9000000000000000
(1620301067.146726) can0 1C1047FF#9000000000000000
(1620301067.149661) can0 1B1047FF#9000000000000000
(1620301067.152600) can0 1A1047FF#9000000000000000
(1620301067.155516) can0 191047FF#9000000000000000
(1620301067.158478) can0 181047FF#9000000000000000
(1620301067.161394) can0 171047FF#9000000000000000
(1620301067.164294) can0 161047FF#9000000000000000
(1620301067.167208) can0 151047FF#9000000000000000
(1620301067.170184) can0 141047FF#9000000000000000
(1620301067.173109) can0 131047FF#9000000000000000
(1620301067.176027) can0 121047FF#9000000000000000
(1620301067.178950) can0 111047FF#9000000000000000
(1620301067.181907) can0 101047FF#9000000000000000
(1620301067.184844) can0 0F1047FF#9000000000000000
(1620301067.187768) can0 0E1047FF#9000000000000000
(1620301067.190722) can0 0D1047FF#9000000000000000
(1620301067.192775) can0 0C9047FF#9000AD73
(1620301068.123036) can0 1FE00FFF#015201020064
(1620301068.140340) can0 1F600FFF#119F7404FF000000
(1620301068.142858) can0 1EA00FFF#9F00FFFF673B
(1620301068.642397) can0 00E00FFF#0102
(1620301068.760996) can0 1FD047FF#016100FF
(1620301069.985406) can0 00D047FF#0102
(1620301070.084452) can0 1FE00A08#014400000FA5
(1620301070.101790) can0 1FE00A08#014400000813
(1620301070.121901) can0 1FE00A08#014400000FF9
(1620301070.139162) can0 1FE00A08#014000004EE8
(1620301070.144000) can0 1F5047FF#11934200004EE800
(1620301070.146473) can0 1E9047FF#93000000E9FF
(1620301070.159945) can0 1FE00A08#014400000FFA
(1620301070.166366) can0 1FE00A08#014400000FFD
(1620301070.172710) can0 1FE00A08#014032009F0A
(1620301070.174465) can0 1FD047FF#014232009F0A64
(1620301070.177027) can0 1FE00A08#014400000FFE
(1620301070.181609) can0 1FE00A08#014032009EEE
(1620301070.184591) can0 1FD047FF#014232009EEE0F
(1620301070.187101) can0 1FE00A08#01440000101E
(1620301070.190427) can0 1FE00A08#014032009AE4
(1620301070.193400) can0 1FD047FF#014232009AE401
(1620301070.201643) can0 1FE00A08#014400004EE8
(1620301070.209450) can0 1FE00A08#0140320092E8
(1620301070.212440) can0 1FD047FF#0142320092E8FF
(1620301070.216734) can0 1FE00A08#014400004EE9
(1620301070.219784) can0 1F5047FF#119856320092E870
(1620301070.222015) can0 1E9047FF#98006400A4
(1620301070.226441) can0 1FE00A08#0140320092EB
(1620301070.229439) can0 1FD047FF#0142320092EBFF
(1620301070.233798) can0 1FE00A08#014400004EEA
(1620301070.236827) can0 1F5047FF#119A56320092EB70
(1620301070.239099) can0 1E9047FF#9A00642569
(1620301070.244472) can0 1FE00A08#0140320096CE
(1620301070.247425) can0 1FD047FF#0142320096CE3C
(1620301070.251669) can0 1FE00A08#014400004EEB
(1620301070.261478) can0 1FE00A08#014032009EEF
(1620301070.264454) can0 1FD047FF#014232009EEF38
(1620301070.268771) can0 1FE00A08#014400004EEC
(1620301070.278445) can0 1FE00A08#0140320001F7
(1620301070.281504) can0 1FD047FF#0142320001F704
(1620301070.285704) can0 1FE00A08#01440000526D
(1620301070.295450) can0 1FE00A08#0140320001F9
(1620301070.298605) can0 1F5047FF#199E42320001F94B
(1620301070.301288) can0 1E1047FF#9E6F6E7374616E74
(1620301070.303189) can0 1D9047FF#9E566E
(1620301070.313602) can0 1FE00A08#01440000526E
(1620301070.330719) can0 1FE00A08#014400004E24
(1620301070.347612) can0 1FE00A08#014400005242
(1620301070.364770) can0 1FE00A08#014400000000
(1620301070.467874) can0 1F600A08#11BC62003EF80000
(1620301070.470156) can0 1EA00A08#BCFFFF0D7A
(1620301070.474017) can0 1F5047FF#499F62803EF80000
(1620301070.476856) can0 1E1047FF#9F0DFA0F0B67616E
(1620301070.479597) can0 1D1047FF#9F7A657220546167
(1620301070.482438) can0 1C1047FF#9F00FA1400FA1539
(1620301070.485295) can0 1F600A08#11BD62003EF90000
(1620301070.488034) can0 1B1047FF#9FFA1618FA1734FA
(1620301070.490352) can0 1EA00A08#BDFFFF063E
(1620301070.493073) can0 1A1047FF#9F1848FA193CFA1A
(1620301070.495830) can0 191047FF#9F53FA1B37FA1C60
(1620301070.498670) can0 181047FF#9FFA1D00FA1E60FA
(1620301070.501007) can0 179047FF#9F1F007C87
(1620301070.503907) can0 1F600A08#11BE62003EFA0000
(1620301070.506246) can0 1EA00A08#BEFFFF1BF2
(1620301070.510067) can0 1F5047FF#49A062803EF90000
(1620301070.512876) can0 1E1047FF#A00DFA0F0D6CE46E
(1620301070.515605) can0 1D1047FF#A067657265722054
(1620301070.518445) can0 1C1047FF#A0616700FA1400FA
(1620301070.521335) can0 1F600A08#11BF62003EFB0000
(1620301070.524078) can0 1B1047FF#A0153AFA1660FA17
(1620301070.526359) can0 1EA00A08#BFFFFF10B6
(1620301070.529179) can0 1A1047FF#A000FA1860FA1900
(1620301070.531969) can0 191047FF#A0FA1A60FA1B00FA
(1620301070.534805) can0 181047FF#A01C60FA1D00FA1E
(1620301070.537704) can0 1F600A08#11C062003EFC0000
(1620301070.540340) can0 179047FF#A060FA1F006EFB
(1620301070.542646) can0 1EA00A08#C0FFFF206A
(1620301070.546460) can0 1F5047FF#49A162803EFA0000
(1620301070.549346) can0 1F600A08#11C162003DF80000
(1620301070.552126) can0 1E1047FF#A10DFA0F0B4672FC
(1620301070.554463) can0 1EA00A08#C1FFFF0107
(1620301070.557169) can0 1D1047FF#A1682B4162656E64
(1620301070.559982) can0 1C1047FF#A100FA1400FA153C
(1620301070.562766) can0 1B1047FF#A1FA1620FA170FFA
(1620301070.565505) can0 1A1047FF#A11840FA1932FA1A
(1620301070.568302) can0 191047FF#A160FA1B00FA1C60
(1620301070.571142) can0 1F600A08#11C262003DF90000
(1620301070.573924) can0 181047FF#A1FA1D00FA1E60FA
(1620301070.576182) can0 1EA00A08#C2FFFF0A43
(1620301070.578422) can0 179047FF#A11F00ED96
(1620301070.593790) can0 1F5047FF#49A262803EFB0000
(1620301070.596570) can0 1E1047FF#A20DFA0F0A6E7572
(1620301070.599345) can0 1D1047FF#A2204162656E6400
(1620301070.602186) can0 1C1047FF#A2FA1400FA1532FA
(1620301070.604965) can0 1B1047FF#A21620FA170FFA18
(1620301070.607723) can0 1A1047FF#A240FA1932FA1A60
(1620301070.610502) can0 191047FF#A2FA1B00FA1C60FA
(1620301070.613299) can0 181047FF#A21D00FA1E60FA1F
(1620301070.615361) can0 179047FF#A246EF99
(1620301070.619618) can0 00D047FF#010A0202080401
(1620301070.623843) can0 1F5047FF#41A462803EFC0000
(1620301070.626619) can0 1E1047FF#A40DFA0F044E4555
(1620301070.629420) can0 1D1047FF#A400FA1400FA1532
(1620301070.632221) can0 1C1047FF#A4FA1660FA1700FA
(1620301070.634997) can0 1B1047FF#A41860FA1900FA1A
(1620301070.637778) can0 1A1047FF#A460FA1B00FA1C60
(1620301070.640558) can0 191047FF#A4FA1D00FA1E60FA
(1620301070.642818) can0 189047FF#A41F006E2A
(1620301070.653840) can0 1F5047FF#39A562803DF80000
(1620301070.656671) can0 1E1047FF#A509FA0000FA0100
(1620301070.659473) can0 1D1047FF#A5FA0200FA0300FA
(1620301070.662340) can0 1C1047FF#A50400FA0500FA06
(1620301070.665199) can0 1B1047FF#A500FA07FFFA0F08
(1620301070.667897) can0 1A1047FF#A5576F6368652031
(1620301070.669967) can0 199047FF#A500E8D7
(1620301070.683862) can0 1F5047FF#39A662803DF90000
(1620301070.686724) can0 1E1047FF#A609FA0001FA0102
(1620301070.689561) can0 1D1047FF#A6FA0202FA0302FA
(1620301070.692433) can0 1C1047FF#A60402FA0500FA06
(1620301070.695291) can0 1B1047FF#A600FA07FFFA0F08
(1620301070.697990) can0 1A1047FF#A6576F6368652032
(1620301070.700037) can0 199047FF#A600F514
(1620301071.405986) can0 1FE00A08#0144320092E8
(1620301071.409254) can0 1FE00A08#0144320092EB
(1620301071.423108) can0 1FE00A08#014432009F0A
(1620301071.439961) can0 1FE00A08#014432009EEE
(1620301071.457090) can0 1FE00A08#014432009AE4
(1620301071.476052) can0 1FE00A08#0144320001F7
(1620301071.493047) can0 1FE00A08#0144320096CE
(1620301071.509996) can0 1FE00A08#014432009EEF
(1620301071.765294) can0 1F5047FF#11A77402FF000000
(1620301071.767824) can0 1E9047FF#A700FFFF7A8A
(1620301071.809276) can0 1FD047FF#0142320092E200CF
(1620301073.122421) can0 1FE00A08#014032009ECA
(1620301073.125304) can0 1FD047FF#014232009ECA04
(1620301073.128067) can0 1F600FFF#11CC740002D46268
(1620301073.130525) can0 1EA00FFF#CC600000A366
(1620301073.643822) can0 00E00FFF#0102
(1620301074.121326) can0 1FE00FFF#016159FF
(1620301074.988578) can0 00D047FF#0102
(1620301075.004247) can0 1FD047FF#01086093E2AC
(1620301075.765418) can0 1FD047FF#016132FF
(1620301075.811786) can0 1FD047FF#0142320092E200CE
(1620301076.123288) can0 1FE00A08#0140320001F9
(1620301076.126345) can0 1F5047FF#19AE42320001F94B
(1620301076.129029) can0 1E1047FF#AE6F6E7374616E74
(1620301076.130980) can0 1D9047FF#AE566E
(1620301076.767507) can0 1FD047FF#015002080401
(1620301076.782898) can0 1F5047FF#11B07403FF000000
(1620301076.785388) can0 1E9047FF#B000FFFFFB35
(1620301077.813085) can0 1FD047FF#0142320092E200CF
(1620301078.126333) can0 1FE00FFF#01520204FFFFFFFF
(1620301078.141220) can0 1F600FFF#11D17401FF000000
(1620301078.143721) can0 1EA00FFF#D100FFFFF05A
(1620301078.645264) can0 00E00FFF#0102
(1620301079.124306) can0 1FE00A08#014032009ECA
(1620301079.127209) can0 1FD047FF#014232009ECA04
(1620301079.991760) can0 00D047FF#0102
(1620301080.626037) can0 00D047FF#010A0202080401
(1620301081.124072) can0 1FE00FFF#01615AFF
(1620301081.771027) can0 1F5047FF#11B57404FF000000
(1620301081.773454) can0 1E9047FF#B500FFFF673B
(1620301082.124993) can0 1FE00A08#0140320001F9
(1620301082.128046) can0 1F5047FF#19B642320001F94B
(1620301082.130748) can0 1E1047FF#B66F6E7374616E74
(1620301082.132656) can0 1D9047FF#B6566E
(1620301082.769848) can0 1FD047FF#01613DFF
(1620301083.129735) can0 1F600FFF#11D67402FF000000
(1620301083.132192) can0 1EA00FFF#D600FFFF7A8A
(1620301083.646691) can0 00E00FFF#0102
(1620301084.994905) can0 00D047FF#0102
(1620301085.126008) can0 1FE00A08#014032009ECA
(1620301085.128835) can0 1FD047FF#014232009ECA04
(1620301085.818120) can0 1FD047FF#0142320092E200CE
(1620301086.774445) can0 1FD047FF#015002080401
(1620301086.788738) can0 1FD047FF#014C01028000
(1620301086.804202) can0 1F5047FF#11BD7400FF000000
(1620301086.806657) can0 1E9047FF#BD00FFFF71E5
(1620301088.126568) can0 1FE00FFF#01615BFFFFFFFF
(1620301088.129790) can0 1FE00A08#0140320001F9
(1620301088.132731) can0 1F5047FF#19BE42320001F94B
(1620301088.135432) can0 1E1047FF#BE6F6E7374616E74
(1620301088.137374) can0 1D9047FF#BE566E
(1620301088.141341) can0 1FE00FFF#0152030212CE
(1620301088.156177) can0 1F600FFF#11DC7403FF000000
(1620301088.158730) can0 1EA00FFF#DC00FFFFFB35
(1620301088.648129) can0 00E00FFF#0102
(1620301089.774320) can0 1FD047FF#01613EFF
(1620301089.998073) can0 00D047FF#0102
(1620301090.013791) can0 1FD047FF#01086093E2BB
(1620301090.632350) can0 00D047FF#010A0202080401
(1620301091.127759) can0 1FE00A08#014032009ECA
(1620301091.130640) can0 1FD047FF#014232009ECA04
(1620301091.777325) can0 1F5047FF#11C47401FF000000
(1620301091.779836) can0 1E9047FF#C400FFFFF05A
(1620301091.821893) can0 1FD047FF#0142320092E200D0
(1620301092.459595) can0 1FE00A08#014032009ECA00
(1620301092.462487) can0 1FD047FF#014232009ECA04
(1620301092.465107) can0 1FE10A08#014032009ECB00
(1620301092.467928) can0 1FD047FF#014232009ECB3C
(1620301092.470550) can0 1FE20A08#014032009EEE00
(1620301092.473428) can0 1FD047FF#014232009EEE0F
(1620301092.476087) can0 1FE30A08#01403200000000
(1620301092.479188) can0 1FD047FF#0142320000000066
(1620301092.481813) can0 1FE40A08#0140320096CE00
(1620301092.484629) can0 1FD047FF#0142320096CE3C
(1620301092.487248) can0 1FE50A08#0140320092E200
(1620301092.490260) can0 1FD047FF#0142320092E200D0
(1620301092.492894) can0 1FE60A08#014032009EEF00
(1620301092.495724) can0 1FD047FF#014232009EEF38
(1620301092.498362) can0 1FE70A08#0140320092E000
(1620301092.501205) can0 1FD047FF#0142320092E026
(1620301093.132579) can0 1F600FFF#11DF7404FF000000
(1620301093.135064) can0 1EA00FFF#DF00FFFF673B
(1620301093.649582) can0 00E00FFF#0102
(1620301093.823197) can0 1FD047FF#0142320092E200CF
(1620301094.128477) can0 1FE00A08#0140320001F9
(1620301094.131514) can0 1F5047FF#19CF42320001F94B
(1620301094.134247) can0 1E1047FF#CF6F6E7374616E74
(1620301094.136154) can0 1D9047FF#CF566E
(1620301095.001221) can0 00D047FF#0102
(1620301095.127336) can0 1FE00FFF#016100FF
(1620301096.778678) can0 1FD047FF#01615AFF
(1620301096.794086) can0 1FD047FF#015002080401
(1620301096.809077) can0 1FD047FF#014C02028000
(1620301096.824508) can0 1F5047FF#11D47402FF000000
(1620301096.826964) can0 1E9047FF#D400FFFF7A8A
(1620301097.129446) can0 1FE00A08#014032009ECA
(1620301097.132302) can0 1FD047FF#014232009ECA04
(1620301097.825683) can0 1FD047FF#0142320092E200CE
(1620301098.131592) can0 1FE00FFF#015204020486
(1620301098.146888) can0 1F600FFF#11E5740002D46268
(1620301098.149342) can0 1EA00FFF#E5600000A366
(1620301098.650973) can0 00E00FFF#0102
(1620301100.004395) can0 00D047FF#0102
(1620301100.130129) can0 1FE00A08#0140320001F9
(1620301100.133178) can0 1F5047FF#19D842320001F94B
(1620301100.135895) can0 1E1047FF#D86F6E7374616E74
(1620301100.137836) can0 1D9047FF#D8566E
(1620301100.638676) can0 00D047FF#010A0202080401
(1620301101.784299) can0 1F5047FF#11DA7403FF000000
(1620301101.786751) can0 1E9047FF#DA00FFFFFB35
(1620301101.828238) can0 1FD047FF#0142320092E200CF
(1620301102.132426) can0 1FE00FFF#016150FFFF
(1620301102.163317) can0 1FD047FF#01086093E2C8
(1620301103.131157) can0 1FE00A08#014032009ECA
(1620301103.134010) can0 1FD047FF#014232009ECA04
(1620301103.136877) can0 1F600FFF#11EA7401FF000000
(1620301103.139368) can0 1EA00FFF#EA00FFFFF05A
(1620301103.652430) can0 00E00FFF#0102
(1620301103.783153) can0 1FD047FF#016100FF
(1620301105.007559) can0 00D047FF#0102
(1620301106.131842) can0 1FE00A08#0140320001F9
(1620301106.134911) can0 1F5047FF#19E042320001F94B
(1620301106.137625) can0 1E1047FF#E06F6E7374616E74
(1620301106.139552) can0 1D9047FF#E0566E
(1620301106.786494) can0 1FD047FF#015002080401
(1620301106.801199) can0 1FD047FF#014C110100
(1620301106.816803) can0 1F5047FF#11E37404FF000000
(1620301106.819278) can0 1E9047FF#E300FFFF673B
(1620301108.134298) can0 1FE00FFF#0152060100
(1620301108.149826) can0 1F600FFF#11EE7402FF000000
(1620301108.152234) can0 1EA00FFF#EE00FFFF7A8A
(1620301108.653829) can0 00E00FFF#0102
(1620301109.131411) can0 1FE00FFF#016151FF
(1620301109.146955) can0 1FE00A08#014032009ECA
(1620301109.149891) can0 1FD047FF#014232009ECA04
(1620301109.833305) can0 1FD047FF#0142320092E200CE
(1620301110.010724) can0 00D047FF#0102
(1620301110.645013) can0 00D047FF#010A0202080401
(1620301110.787571) can0 1FD047FF#016132FF
(1620301111.790019) can0 1F5047FF#11E97400FF000000
(1620301111.792470) can0 1E9047FF#E900FFFF71E5
(1620301111.834580) can0 1FD047FF#0142320092E200CF
(1620301112.133550) can0 1FE00A08#0140320001F9
(1620301112.136631) can0 1F5047FF#19EB42320001F94B
(1620301112.139356) can0 1E1047FF#EB6F6E7374616E74
(1620301112.141188) can0 1D9047FF#EB566E
(1620301113.138307) can0 1F600FFF#11F37403FF000000
(1620301113.140790) can0 1EA00FFF#F300FFFFFB35
(1620301113.655246) can0 00E00FFF#0102
(1620301115.013891) can0 00D047FF#0102
(1620301115.134566) can0 1FE00A08#014032009ECA
(1620301115.137419) can0 1FD047FF#014232009ECA04
(1620301116.133279) can0 1FE00FFF#016152FF
(1620301116.793544) can0 1FD047FF#015002080401
(1620301116.807570) can0 1FD047FF#014C040180
(1620301116.823173) can0 1F5047FF#11F07401FF000000
(1620301116.825680) can0 1E9047FF#F000FFFFF05A
(1620301117.791984) can0 1FD047FF#01613DFF
(1620301117.838373) can0 1FD047FF#0142320092E200CE
(1620301118.135308) can0 1FE00A08#0140320001F9
(1620301118.138389) can0 1F5047FF#19F342320001F94B
(1620301118.140700) can0 1FE00FFF#0152000100
(1620301118.143361) can0 1E1047FF#F36F6E7374616E74
(1620301118.145278) can0 1D9047FF#F3566E
(1620301118.148966) can0 1F600FFF#11F97404FF000000
(1620301118.151456) can0 1EA00FFF#F900FFFF673B
(1620301118.656664) can0 00E00FFF#0102
(1620301120.017049) can0 00D047FF#0102
(1620301120.032718) can0 1FD047FF#01086093E2D9
(1620301120.651330) can0 00D047FF#010A0202080401
(1620301121.136271) can0 1FE00A08#014032009ECA
(1620301121.139129) can0 1FD047FF#014232009ECA04
(1620301121.796298) can0 1F5047FF#11F87402FF000000
(1620301121.798786) can0 1E9047FF#F800FFFF7A8A
(1620301122.459722) can0 1FE00A08#014032009ECA00
(1620301122.462559) can0 1FD047FF#014232009ECA04
(1620301122.465197) can0 1FE10A08#014032009ECB00
(1620301122.468001) can0 1FD047FF#014232009ECB3C
(1620301122.470618) can0 1FE20A08#014032009EEE00
(1620301122.473489) can0 1FD047FF#014232009EEE0F
(1620301122.476183) can0 1FE30A08#01403200000000
(1620301122.479301) can0 1FD047FF#0142320000000066
(1620301122.481903) can0 1FE40A08#0140320096CE00
(1620301122.484712) can0 1FD047FF#0142320096CE3C
(1620301122.487340) can0 1FE50A08#0140320092E200
(1620301122.490395) can0 1FD047FF#0142320092E200CE
(1620301122.492976) can0 1FE60A08#014032009EEF00
(1620301122.495801) can0 1FD047FF#014232009EEF38
(1620301122.498445) can0 1FE70A08#0140320092E000
(1620301122.501320) can0 1FD047FF#0142320092E026
(1620301123.135243) can0 1FE00FFF#016153FF
(1620301123.140954) can0 1F600FFF#11FD740002D46268
(1620301123.143432) can0 1EA00FFF#FD600000A366
(1620301123.658083) can0 00E00FFF#0102
(1620301124.136977) can0 1FE00A08#0140320001F9
(1620301124.140064) can0 1F5047FF#190142320001F94B
(1620301124.142803) can0 1E1047FF#016F6E7374616E74
(1620301124.144733) can0 1D9047FF#01566E
(1620301124.796458) can0 1FD047FF#01613EFF
(1620301125.020191) can0 00D047FF#0102
(1620301126.799140) can0 1FD047FF#015002080401
(1620301126.813915) can0 1FD047FF#014C050180
(1620301126.829498) can0 1F5047FF#11067403FF000000
(1620301126.831988) can0 1E9047FF#0600FFFFFB35
(1620301127.139949) can0 1FE00A08#014032009ECA
(1620301127.142782) can0 1FD047FF#014232009ECA04
(1620301127.844683) can0 1FD047FF#0142320092E200CF
(1620301128.140227) can0 1FE00FFF#015201020064
(1620301128.155532) can0 1F600FFF#11027401FF000000
(1620301128.158131) can0 1EA00FFF#0200FFFFF05A
(1620301128.661433) can0 00E00FFF#0102
(1620301129.845942) can0 1FD047FF#0142320092E200CE
(1620301130.023347) can0 00D047FF#0102
(1620301130.137700) can0 1FE00FFF#016154FFFF
(1620301130.152660) can0 1FE00A08#0140320001F9
(1620301130.155692) can0 1F5047FF#190B42320001F94B
(1620301130.158386) can0 1E1047FF#0B6F6E7374616E74
(1620301130.160278) can0 1D9047FF#0B566E
(1620301130.657629) can0 00D047FF#010A0202080401
(1620301131.800800) can0 1FD047FF#01615AFF
(1620301131.817191) can0 1F5047FF#110E7404FF000000
(1620301131.819778) can0 1E9047FF#0E00FFFF673B
(1620301131.847185) can0 1FD047FF#0142320092E200D0
(1620301133.140128) can0 1FE00A08#014032009ECA
(1620301133.142992) can0 1FD047FF#014232009ECA04
(1620301133.145862) can0 1F600FFF#11077402FF000000
(1620301133.148360) can0 1EA00FFF#0700FFFF7A8A
(1620301133.662963) can0 00E00FFF#0102
(1620301133.848447) can0 1FD047FF#0142320092E200CE
(1620301135.026514) can0 00D047FF#0102
(1620301135.042227) can0 1FD047FF#01086093E2E8
(1620301135.849784) can0 1FD047FF#0142320092E200CF
(1620301136.140378) can0 1FE00A08#0140320001F9
(1620301136.143433) can0 1F5047FF#191542320001F94B
(1620301136.146140) can0 1E1047FF#156F6E7374616E74
(1620301136.148049) can0 1D9047FF#15566E
(1620301136.805459) can0 1FD047FF#015002080401
(1620301136.820186) can0 1FD047FF#014C120100
(1620301136.835793) can0 1F5047FF#11187400FF000000
(1620301136.838262) can0 1E9047FF#1800FFFF71E5
(1620301137.141176) can0 1FE00FFF#016155FF
(1620301137.851002) can0 1FD047FF#0142320092E200CE
(1620301138.143401) can0 1FE00FFF#01520204FFFFFFFF
(1620301138.158354) can0 1F600FFF#110C7403FF000000
(1620301138.160899) can0 1EA00FFF#0C00FFFFFB35
(1620301138.664363) can0 00E00FFF#0102
(1620301138.805270) can0 1FD047FF#016100FF
(1620301139.141383) can0 1FE00A08#014032009ECA
(1620301139.144238) can0 1FD047FF#014232009ECA04
(1620301139.852269) can0 1FD047FF#0142320092E200CF
(1620301140.029732) can0 00D047FF#0102
(1620301140.663954) can0 00D047FF#010A0202080401
(1620301140.956572) can0 1FE00A08#014032009F0A
(1620301140.959440) can0 1FD047FF#014232009F0A64
(1620301140.963316) can0 1FE00A08#014032009EEE
(1620301140.966152) can0 1FD047FF#014232009EEE0F
(1620301140.971311) can0 1FE00A08#014032009AE4
(1620301140.974212) can0 1FD047FF#014232009AE401
(1620301140.979590) can0 1FE00A08#0140320092E8
(1620301140.982606) can0 1F5047FF#112256320092E870
(1620301140.984905) can0 1E9047FF#22006400A4
(1620301140.989202) can0 1FD047FF#0142320092E8FF
(1620301140.991661) can0 1FE00A08#0140320092EB
(1620301140.994704) can0 1F5047FF#112456320092EB70
(1620301140.996943) can0 1E9047FF#2400642569
(1620301140.999439) can0 1FE00A08#0140320096CE
(1620301141.002281) can0 1FD047FF#0142320092EBFF
(1620301141.004714) can0 1FE00A08#014032009EEF
(1620301141.007525) can0 1FD047FF#0142320096CE3C
(1620301141.010023) can0 1FE00A08#0140320001F7
(1620301141.012877) can0 1FD047FF#014232009EEF38
(1620301141.019286) can0 1FD047FF#0142320001F704
(1620301141.298307) can0 1F600A08#111762003EF80000
(1620301141.300622) can0 1EA00A08#17FFFF0D7A
(1620301141.304413) can0 1F5047FF#492962803EF80000
(1620301141.307192) can0 1E1047FF#290DFA0F0B67616E
(1620301141.309946) can0 1D1047FF#297A657220546167
(1620301141.312773) can0 1C1047FF#2900FA1400FA1539
(1620301141.315630) can0 1F600A08#111862003EF90000
(1620301141.318366) can0 1B1047FF#29FA1618FA1734FA
(1620301141.320673) can0 1EA00A08#18FFFF063E
(1620301141.323408) can0 1A1047FF#291848FA193CFA1A
(1620301141.326185) can0 191047FF#2953FA1B37FA1C60
(1620301141.329027) can0 181047FF#29FA1D00FA1E60FA
(1620301141.331331) can0 179047FF#291F007C87
(1620301141.334210) can0 1F600A08#111962003EFA0000
(1620301141.337011) can0 1F5047FF#492A62803EF90000
(1620301141.339282) can0 1EA00A08#19FFFF1BF2
(1620301141.342065) can0 1E1047FF#2A0DFA0F0D6CE46E
(1620301141.344784) can0 1D1047FF#2A67657265722054
(1620301141.347603) can0 1C1047FF#2A616700FA1400FA
(1620301141.350465) can0 1F600A08#111A62003EFB0000
(1620301141.353227) can0 1B1047FF#2A153AFA1660FA17
(1620301141.355503) can0 1EA00A08#1AFFFF10B6
(1620301141.358306) can0 1A1047FF#2A00FA1860FA1900
(1620301141.361101) can0 191047FF#2AFA1A60FA1B00FA
(1620301141.363905) can0 181047FF#2A1C60FA1D00FA1E
(1620301141.366545) can0 179047FF#2A60FA1F006EFB
(1620301141.369426) can0 1F600A08#111B62003EFC0000
(1620301141.371720) can0 1EA00A08#1BFFFF206A
(1620301141.375541) can0 1F5047FF#492B62803EFA0000
(1620301141.378371) can0 1E1047FF#2B0DFA0F0B4672FC
(1620301141.381103) can0 1D1047FF#2B682B4162656E64
(1620301141.383923) can0 1C1047FF#2B00FA1400FA153C
(1620301141.386758) can0 1F600A08#111C62003DF80000
(1620301141.389536) can0 1B1047FF#2BFA1620FA170FFA
(1620301141.391844) can0 1EA00A08#1CFFFF0107
(1620301141.394592) can0 1A1047FF#2B1840FA1932FA1A
(1620301141.397395) can0 191047FF#2B60FA1B00FA1C60
(1620301141.402683) can0 181047FF#2BFA1D00FA1E60FA
(1620301141.402938) can0 1F600A08#111D62003DF90000
(1620301141.405224) can0 179047FF#2B1F00ED96
(1620301141.407473) can0 1EA00A08#1DFFFF0A43
(1620301141.410271) can0 1F5047FF#492C62803EFB0000
(1620301141.413072) can0 1E1047FF#2C0DFA0F0A6E7572
(1620301141.415873) can0 1D1047FF#2C204162656E6400
(1620301141.418691) can0 1C1047FF#2CFA1400FA1532FA
(1620301141.421491) can0 1B1047FF#2C1620FA170FFA18
(1620301141.424290) can0 1A1047FF#2C40FA1932FA1A60
(1620301141.427149) can0 191047FF#2CFA1B00FA1C60FA
(1620301141.429985) can0 181047FF#2C1D00FA1E60FA1F
(1620301141.432049) can0 179047FF#2C46EF99
(1620301141.439569) can0 1F5047FF#412D62803EFC0000
(1620301141.442369) can0 1E1047FF#2D0DFA0F044E4555
(1620301141.445190) can0 1D1047FF#2D00FA1400FA1532
(1620301141.448009) can0 1C1047FF#2DFA1660FA1700FA
(1620301141.450797) can0 1B1047FF#2D1860FA1900FA1A
(1620301141.453618) can0 1A1047FF#2D60FA1B00FA1C60
(1620301141.456414) can0 191047FF#2DFA1D00FA1E60FA
(1620301141.458683) can0 189047FF#2D1F006E2A
(1620301141.469587) can0 1F5047FF#392E62803DF80000
(1620301141.472468) can0 1E1047FF#2E09FA0000FA0100
(1620301141.475314) can0 1D1047FF#2EFA0200FA0300FA
(1620301141.478205) can0 1C1047FF#2E0400FA0500FA06
(1620301141.481113) can0 1B1047FF#2E00FA07FFFA0F08
(1620301141.483824) can0 1A1047FF#2E576F6368652031
(1620301141.485903) can0 199047FF#2E00E8D7
(1620301141.499586) can0 1F5047FF#392F62803DF90000
(1620301141.502431) can0 1E1047FF#2F09FA0001FA0102
(1620301141.505270) can0 1D1047FF#2FFA0202FA0302FA
(1620301141.508126) can0 1C1047FF#2F0402FA0500FA06
(1620301141.511025) can0 1B1047FF#2F00FA07FFFA0F08
(1620301141.513767) can0 1A1047FF#2F576F6368652032
(1620301141.515827) can0 199047FF#2F00F514
(1620301141.808896) can0 1F5047FF#11307401FF000000
(1620301141.811405) can0 1E9047FF#3000FFFFF05A
(1620301141.853431) can0 1FD047FF#0142320092E200CE
(1620301142.142042) can0 1FE00A08#0140320096CE
(1620301142.144887) can0 1FD047FF#0142320096CE3C
(1620301143.146767) can0 1F600FFF#111F7404FF000000
(1620301143.149291) can0 1EA00FFF#1F00FFFF673B
(1620301143.665810) can0 00E00FFF#0102
(1620301143.854791) can0 1FD047FF#0142320092E200CF
(1620301144.141250) can0 1FE00FFF#016157FF
(1620301145.032844) can0 00D047FF#0102
(1620301145.142919) can0 1FE00A08#0140320001F7
(1620301145.145807) can0 1FD047FF#0142320001F704
(1620301145.809649) can0 1FD047FF#016132FF
(1620301146.812350) can0 1FD047FF#015002080401
(1620301146.826448) can0 1FD047FF#014C070180
(1620301146.842073) can0 1F5047FF#11397402FF000000
(1620301146.844515) can0 1E9047FF#3900FFFF7A8A
(1620301147.857111) can0 1FD047FF#0142320092E027
(1620301148.144446) can0 1FE00A08#0140320001F9
(1620301148.147491) can0 1F5047FF#193B42320001F94B
(1620301148.149925) can0 1FE00FFF#0152030212CE
(1620301148.152623) can0 1E1047FF#3B6F6E7374616E74
(1620301148.154537) can0 1D9047FF#3B566E
(1620301148.159868) can0 1F600FFF#1125740002D46268
(1620301148.162314) can0 1EA00FFF#25600000A366
(1620301148.667207) can0 00E00FFF#0102
(1620301149.858822) can0 1FD047FF#0142320092E200CE
(1620301149.873785) can0 1FD047FF#0142320092E026
(1620301150.035959) can0 00D047FF#0102
(1620301150.051629) can0 1FD047FF#01086093E2F7
(1620301150.670261) can0 00D047FF#010A0202080401
(1620301151.143231) can0 1FE00FFF#016158FF
(1620301151.158813) can0 1FE00A08#014032009F0A
(1620301151.161682) can0 1FD047FF#014232009F0A64
(1620301151.815277) can0 1F5047FF#11427403FF000000
(1620301151.817753) can0 1E9047FF#4200FFFFFB35
(1620301152.459804) can0 1FE00A08#014032009ECA00
(1620301152.462645) can0 1FD047FF#014232009ECA04
(1620301152.465278) can0 1FE10A08#014032009ECB00
(1620301152.468091) can0 1FD047FF#014232009ECB3C
(1620301152.470714) can0 1FE20A08#014032009EEE00
(1620301152.473583) can0 1FD047FF#014232009EEE0F
(1620301152.476256) can0 1FE30A08#01403200000000
(1620301152.479372) can0 1FD047FF#0142320000000066
(1620301152.481994) can0 1FE40A08#0140320096CE00
(1620301152.484809) can0 1FD047FF#0142320096CE3C
(1620301152.487420) can0 1FE50A08#0140320092E200
(1620301152.490599) can0 1FD047FF#0142320092E200CE
(1620301152.493058) can0 1FE60A08#014032009EEF00
(1620301152.495887) can0 1FD047FF#014232009EEF38
(1620301152.498534) can0 1FE70A08#0140320092E000
(1620301152.502674) can0 1FD047FF#0142320092E026
(1620301152.814059) can0 1FD047FF#01613DFF
(1620301153.150638) can0 1F600FFF#11297401FF000000
(1620301153.153172) can0 1EA00FFF#2900FFFFF05A
(1620301153.668581) can0 00E00FFF#0102
(1620301153.861100) can0 1FD047FF#0142320092E200CF
(1620301154.145398) can0 1FE00A08#014032009EEE
(1620301154.148268) can0 1FD047FF#014232009EEE0F
(1620301155.039132) can0 00D047FF#0102
(1620301155.862353) can0 1FD047FF#0142320092E200CE
(1620301156.818057) can0 1FD047FF#015002080401
(1620301156.832808) can0 1FD047FF#014C080180
(1620301156.848393) can0 1F5047FF#11527404FF000000
(1620301156.850845) can0 1E9047FF#5200FFFF673B
(1620301157.146295) can0 1FE00A08#014032009AE4
(1620301157.149144) can0 1FD047FF#014232009AE401
(1620301157.863619) can0 1FD047FF#0142320092E200CF
(1620301158.145261) can0 1FE00FFF#016159FF
(1620301158.148604) can0 1FE00FFF#015204020486
(1620301158.160980) can0 1F600FFF#112F7402FF000000
(1620301158.163448) can0 1EA00FFF#2F00FFFF7A8A
(1620301158.670014) can0 00E00FFF#0102
(1620301159.818563) can0 1FD047FF#01613EFF
(1620301159.864874) can0 1FD047FF#0142320092E200CE
(1620301160.042320) can0 00D047FF#0102
(1620301160.149025) can0 1FE00A08#0140320092E8
(1620301160.151876) can0 1FD047FF#0142320092E8FF
(1620301160.166458) can0 1F5047FF#115956320092E870
(1620301160.168722) can0 1E9047FF#59006400A4
(1620301160.676587) can0 00D047FF#010A0202080401
(1620301161.822253) can0 1F5047FF#115B7400FF000000
(1620301161.824673) can0 1E9047FF#5B00FFFF71E5
(1620301161.866133) can0 1FD047FF#0142320092E200D0
(1620301162.201198) can0 1FD047FF#01086093E304
(1620301163.147950) can0 1FE00A08#0140320092EB
(1620301163.150838) can0 1FD047FF#0142320092EBFF
(1620301163.153707) can0 1F600FFF#11337403FF000000
(1620301163.156180) can0 1EA00FFF#3300FFFFFB35
(1620301163.159224) can0 1F5047FF#115F56320092EB70
(1620301163.161479) can0 1E9047FF#5F00642569
(1620301163.671434) can0 00E00FFF#0102
(1620301163.867409) can0 1FD047FF#0142320092E200CE
(1620301165.045453) can0 00D047FF#0102
(1620301165.147203) can0 1FE00FFF#01615AFF
(1620301166.150710) can0 1FE00A08#014032009EEF
(1620301166.153548) can0 1FD047FF#014232009EEF38
(1620301166.822916) can0 1FD047FF#01615AFF
(1620301166.838286) can0 1FD047FF#015002080401
(1620301166.853095) can0 1FD047FF#014C130100
(1620301166.868698) can0 1F5047FF#11667401FF000000
(1620301166.871218) can0 1E9047FF#6600FFFFF05A
(1620301167.870203) can0 1FD047FF#0142320092E200CF
(1620301167.885138) can0 1FD047FF#0142320092E027
(1620301168.151626) can0 1FE00FFF#0152060100
(1620301168.166871) can0 1F600FFF#11387404FF000000
(1620301168.169373) can0 1EA00FFF#3800FFFF673B
(1620301168.672867) can0 00E00FFF#0102
(1620301169.149786) can0 1FE00A08#014032009ECA
(1620301169.152576) can0 1FD047FF#014232009ECA04
(1620301169.806409) can0 1FD047FF#0142320000000065
(1620301169.872435) can0 1FD047FF#0142320092E200CE
(1620301169.887426) can0 1FD047FF#0142320092E026
(1620301170.048601) can0 00D047FF#0102
(1620301170.682875) can0 00D047FF#010A0202080401