(1620149793.500392) can0 1FE00A08#0140320092EB
(1620149793.503270) can0 1FD047FF#0142320092EBFF
(1620149793.518125) can0 1F5047FF#113E56320092EB70
(1620149793.520383) can0 1E9047FF#3E00642569
(1620149793.602064) can0 1FD047FF#0142320092E200D2
(1620149793.617003) can0 1FD047FF#0142320092E02C
(1620149794.211483) can0 00D047FF#0102
(1620149794.499279) can0 1FE00FFF#016152FF
(1620149795.505383) can0 1F600FFF#11D27402FF000000
(1620149795.507842) can0 1EA00FFF#D200FFFF7A8A
(1620149795.602774) can0 1FD047FF#0142320092E02D
(1620149796.501116) can0 1FE00A08#014032009EEF
(1620149796.503953) can0 1FD047FF#014232009EEF38
(1620149796.559242) can0 1FD047FF#015002080401
(1620149796.573410) can0 1FD047FF#014C050180
(1620149796.588984) can0 1F5047FF#11467400FF000000
(1620149796.591435) can0 1E9047FF#4600FFFF71E5
(1620149797.213612) can0 00E00FFF#0102
(1620149797.695639) can0 1FE00A08#014632009ECB28
(1620149797.698662) can0 1FD047FF#014232009ECB28
(1620149798.739942) can0 1FD047FF#0142320096CE28
(1620149799.214425) can0 00D047FF#0102
(1620149799.230092) can0 1FD047FF#0108609193C2
(1620149799.501898) can0 1FE00A08#014032009ECA
(1620149799.504759) can0 1FD047FF#014232009ECA04
(1620149799.559008) can0 1FD047FF#01613EFF
(1620149799.605355) can0 1FD047FF#0142320092E200D3
(1620149800.114853) can0 00D047FF#010A0202080401
(1620149800.504167) can0 1FE00FFF#015204020486
(1620149800.519566) can0 1F600FFF#11D77403FF000000
(1620149800.522064) can0 1EA00FFF#D700FFFFFB35
(1620149801.501057) can0 1FE00FFF#016153FF
(1620149801.561994) can0 1F5047FF#114F7401FF000000
(1620149801.564477) can0 1E9047FF#4F00FFFFF05A
(1620149801.606327) can0 1FD047FF#0142320092E02C
(1620149802.137477) can0 1FE00A08#014032009ECA00
(1620149802.140569) can0 1FE10A08#014032009ECB00
(1620149802.143166) can0 1FD047FF#014232009ECA04
(1620149802.145790) can0 1FE20A08#014032009EEE00
(1620149802.148630) can0 1FD047FF#014232009ECB28
(1620149802.151316) can0 1FE30A08#01403200000000
(1620149802.154192) can0 1FD047FF#014232009EEE0F
(1620149802.156777) can0 1FE40A08#0140320096CE00
(1620149802.159761) can0 1FD047FF#014232000000007F
(1620149802.162295) can0 1FE50A08#0140320092E200
(1620149802.165135) can0 1FD047FF#0142320096CE28
(1620149802.167738) can0 1FE60A08#014032009EEF00
(1620149802.170760) can0 1FD047FF#0142320092E200D3
(1620149802.173425) can0 1FE70A08#0140320092E000
(1620149802.176256) can0 1FD047FF#014232009EEF38
(1620149802.187125) can0 1FD047FF#0142320092E02C
(1620149802.214771) can0 00E00FFF#0102
(1620149802.502522) can0 1FE00A08#0140320096CE
(1620149802.505326) can0 1FD047FF#0142320096CE28
(1620149803.345089) can0 1FE00A08#014632009ECB3C
(1620149803.348057) can0 1FD047FF#014232009ECB3C
(1620149803.607717) can0 1FD047FF#0142320092E200D4
(1620149804.217407) can0 00D047FF#0102
(1620149804.743488) can0 1FD047FF#0142320096CE3C
(1620149805.503430) can0 1FE00A08#0140320001F7
(1620149805.506329) can0 1FD047FF#0142320001F704
(1620149805.509180) can0 1F600FFF#11DC7404FF000000
(1620149805.511701) can0 1EA00FFF#DC00FFFF673B
(1620149805.608922) can0 1FD047FF#0142320092E200D3
(1620149806.563141) can0 1FD047FF#01615AFF
(1620149806.578529) can0 1FD047FF#015002080401
(1620149806.593318) can0 1FD047FF#014C120100
(1620149806.608930) can0 1F5047FF#11637402FF000000
(1620149806.611369) can0 1E9047FF#6300FFFF7A8A
(1620149807.216079) can0 00E00FFF#0102
(1620149807.610393) can0 1FD047FF#0142320092E200D2
(1620149807.625321) can0 1FD047FF#0142320092E02D
(1620149808.502932) can0 1FE00FFF#016154FFFF
(1620149808.518118) can0 1FE00A08#0140320001F9
(1620149808.521170) can0 1F5047FF#196642320001F94B
(1620149808.523851) can0 1E1047FF#666F6E7374616E74
(1620149808.525747) can0 1D9047FF#66566E
(1620149809.220358) can0 00D047FF#0102